{"method":"serial","baudrate":9600,"parityString":"even","stopbitsString":"stopbits_1","databitsString":"databits_8","timeoutMs":1000,"isModbus":false,"calculateCrcModubs":false,"descString":"address: address: 1; address: id: 1-6","writeCommands":[{"command":"0x 01 06 07 E2 17 60 27 50 ","desc":"关设备"},{"command":"0x 01 06 07 E2 17 61 E6 90 ","desc":"开设备"},{"command":"0x 01 06 07 E2 07 61 EB 50 ","desc":"风速1"},{"command":"0x 01 06 07 E2 17 61 E6 90 ","desc":"风速2"},{"command":"0x 01 06 07 E2 27 61 F2 90 ","desc":"风速3"},{"command":"0x 01 06 07 E2 37 61 FF 50 ","desc":"风速4"},{"command":"0x 01 06 07 E2 47 61 DA 90 ","desc":"风速5"},{"command":"0x 01 06 07 E2 57 61 D7 50 ","desc":"风速6"},{"command":"0x 01 06 07 E2 67 61 C3 50 ","desc":"风速7"},{"command":"","desc":"送风"},{"command":"","desc":"暖房"},{"command":"","desc":"冷房"},{"command":"","desc":"自动"},{"command":"","desc":"换气清洁"},{"command":"","desc":"温调"},{"command":"","desc":"除湿"},{"command":"0x 01 06 07 E4 00 FA 48 CA ","desc":"设置温度25"},{"command":"0x 01 06 07 E4 01 0E 48 DD ","desc":"设置温度27"}],"readCommands":[{"command":"0x 01 04 07 F4 00 06 30 8E ","desc":"读取状态"}],"feedbackCommands":[{"command":"01 04 0C 34 A9 81 01 01 04 00 00 01 06 80 00 57 2A","desc":"1-4 风速L"},{"command":"01 04 0C 34 A9 81 01 01 04 00 00 01 10 80 00 B6 EE","desc":"1-4 风速H"},{"command":"01 04 0C 54 A9 81 01 01 04 00 00 00 F5 80 00 26 65","desc":"1-4 风速HH"}]}